
**** 12/04/21 12:47:27 ********* PSpice 9.2 (Mar 2000) ******** ID# 1 ********

 ** Profile: "SCHEMATIC1-1"  [ C:\Things\uni\3rdTerm\Elec\Lab\ElectricalAndElectronicCircuitsLab\ElecLab7\Orcad\lab7-schematic1-1.sim


 ****     CIRCUIT DESCRIPTION


******************************************************************************




** Creating circuit file "lab7-schematic1-1.sim.cir" 
** WARNING: THIS AUTOMATICALLY GENERATED FILE MAY BE OVERWRITTEN BY SUBSEQUENT SIMULATIONS

*Libraries: 
* Local Libraries :
* From [PSPICE NETLIST] section of C:\Program Files\Orcad\PSpice\PSpice.ini file:
.lib "nom.lib" 

*Analysis directives: 
.AC DEC 100 0.1 1000k
.PROBE V(*) I(*) W(*) D(*) NOISE(*) 
.INC ".\lab7-SCHEMATIC1.net" 



**** INCLUDING lab7-SCHEMATIC1.net ****
* source LAB7
R_R1         N00120 N00061  10k  
C_C1         0 N00061  100n   
V_V1         N00120 0 DC 0Vdc AC 2Vac 
V_V3         N00560 0  
+PULSE 4 -4 0 1n 1n 0.5m 1m
R_R2         N00560 N00614  1k  
C_C2         0 N00614  1u   

**** RESUMING lab7-schematic1-1.sim.cir ****
.END

**** 12/04/21 12:47:27 ********* PSpice 9.2 (Mar 2000) ******** ID# 1 ********

 ** Profile: "SCHEMATIC1-1"  [ C:\Things\uni\3rdTerm\Elec\Lab\ElectricalAndElectronicCircuitsLab\ElecLab7\Orcad\lab7-schematic1-1.sim


 ****     SMALL SIGNAL BIAS SOLUTION       TEMPERATURE =   27.000 DEG C


******************************************************************************



 NODE   VOLTAGE     NODE   VOLTAGE     NODE   VOLTAGE     NODE   VOLTAGE


(N00061)    0.0000 (N00120)    0.0000 (N00560)    4.0000 (N00614)    4.0000 




    VOLTAGE SOURCE CURRENTS
    NAME         CURRENT

    V_V1         0.000E+00
    V_V3         0.000E+00

    TOTAL POWER DISSIPATION   0.00E+00  WATTS



          JOB CONCLUDED

          TOTAL JOB TIME             .09
