
**** 12/04/21 17:09:57 ********* PSpice 9.2 (Mar 2000) ******** ID# 1 ********

 ** Profile: "SCHEMATIC1-4"  [ C:\THINGS\UNI\3RDTERM\ELEC\LAB\ELECTRICALANDELECTRONICCIRCUITSLAB\ELECLAB8\Orcad\eleclab8-SCHEMATIC1-4


 ****     CIRCUIT DESCRIPTION


******************************************************************************




** Creating circuit file "eleclab8-SCHEMATIC1-4.sim.cir" 
** WARNING: THIS AUTOMATICALLY GENERATED FILE MAY BE OVERWRITTEN BY SUBSEQUENT SIMULATIONS

*Libraries: 
* Local Libraries :
* From [PSPICE NETLIST] section of C:\Program Files\Orcad\PSpice\PSpice.ini file:
.lib "nom.lib" 

*Analysis directives: 
.TRAN  0 4m 0 
.PROBE V(*) I(*) W(*) D(*) NOISE(*) 
.INC ".\eleclab8-SCHEMATIC1.net" 



**** INCLUDING eleclab8-SCHEMATIC1.net ****
* source ELECLAB8
D_D1         N00147 0 D1N4001 
V_V3         N01246 0  
+SIN 0 6 1000 0 0 0
V_V2         N00504 0  
+SIN 0 6 1000 0 0 0
V_V4         N01704 0  
+SIN 0 6 1000 0 0 0
V_V6         N02797 0  
+SIN 0 6 1000 0 0 0
V_V1         N00117 0 0Vdc
D_D2         N00542 0 D1N4001 
D_D4         N02167 N01762 D1N4001 
R_R1         N00117 N00147  1k  
D_D5         N02835 0 D1N4001 
R_R5         N02797 N02835  1k  
C_C3         N01704 N01762  1u   
C_C1         N00504 N00542  1u   
R_R3         0 N01178  1000k  
R_R4         0 N01762  1000k  
D_D3         0 N01178 D1N4001 
C_C2         N01246 N01178  1u   
R_R2         0 N00542  1000k  
V_V5         N02167 0 20Vdc

**** RESUMING eleclab8-SCHEMATIC1-4.sim.cir ****
.END

**** 12/04/21 17:09:57 ********* PSpice 9.2 (Mar 2000) ******** ID# 1 ********

 ** Profile: "SCHEMATIC1-4"  [ C:\THINGS\UNI\3RDTERM\ELEC\LAB\ELECTRICALANDELECTRONICCIRCUITSLAB\ELECLAB8\Orcad\eleclab8-SCHEMATIC1-4


 ****     Diode MODEL PARAMETERS


******************************************************************************




               D1N4001         
          IS   14.110000E-09 
           N    1.984        
         IKF   94.81         
          BV   75            
         IBV   10.000000E-06 
          RS     .03389      
          TT    5.700000E-06 
         CJO   25.890000E-12 
          VJ     .3245       
           M     .44         


**** 12/04/21 17:09:57 ********* PSpice 9.2 (Mar 2000) ******** ID# 1 ********

 ** Profile: "SCHEMATIC1-4"  [ C:\THINGS\UNI\3RDTERM\ELEC\LAB\ELECTRICALANDELECTRONICCIRCUITSLAB\ELECLAB8\Orcad\eleclab8-SCHEMATIC1-4


 ****     INITIAL TRANSIENT SOLUTION       TEMPERATURE =   27.000 DEG C


******************************************************************************



 NODE   VOLTAGE     NODE   VOLTAGE     NODE   VOLTAGE     NODE   VOLTAGE


(N00117)    0.0000 (N00147) 22.77E-21 (N00504)    0.0000 (N00542) 13.93E-15     

(N01178)-13.93E-15 (N01246)    0.0000 (N01704)    0.0000 (N01762)   19.6290     

(N02167)   20.0000 (N02797)    0.0000 (N02835) 22.74E-21 




    VOLTAGE SOURCE CURRENTS
    NAME         CURRENT

    V_V3         0.000E+00
    V_V2         0.000E+00
    V_V4         0.000E+00
    V_V6         2.274E-23
    V_V1         2.277E-23
    V_V5        -1.963E-05

    TOTAL POWER DISSIPATION   3.93E-04  WATTS



          JOB CONCLUDED

          TOTAL JOB TIME             .53
