
**** 12/25/21 21:36:02 ********* PSpice 9.2 (Mar 2000) ******** ID# 1 ********

 ** Profile: "SCHEMATIC1-2"  [ C:\THINGS\UNI\3RDTERM\ELEC\LAB\ELECTRICALANDELECTRONICCIRCUITSLAB\ELECLAB9\OrCad\lab10-SCHEMATIC1-2.si


 ****     CIRCUIT DESCRIPTION


******************************************************************************




** Creating circuit file "lab10-SCHEMATIC1-2.sim.cir" 
** WARNING: THIS AUTOMATICALLY GENERATED FILE MAY BE OVERWRITTEN BY SUBSEQUENT SIMULATIONS

*Libraries: 
* Local Libraries :
* From [PSPICE NETLIST] section of C:\Program Files\Orcad\PSpice\PSpice.ini file:
.lib "nom.lib" 

*Analysis directives: 
.TRAN  0 3m 0 1u 
.PROBE V(*) I(*) W(*) D(*) NOISE(*) 
.INC ".\lab10-SCHEMATIC1.net" 



**** INCLUDING lab10-SCHEMATIC1.net ****
* source LAB10
X_U1         0 N00418 N00148 N00185 N00631 LM741
V_V3         N00766 0  
+SIN 0 1 1k 0 0 0
V_V6         N03596 0  
+SIN 0 1 1k 0 0 0
R_R3         0 N03185  1k  
V_V1         0 N00185 10Vdc
V_V5         N03381 0 10Vdc
V_V2         N00148 0 10Vdc
V_V4         0 N03297 10Vdc
R_R1         N00766 N00418  1k  
R_R4         N03185 N03225  5.6k  
R_R2         N00418 N00631  5.6k  
X_U2         N03596 N03185 N03381 N03297 N03225 LM741

**** RESUMING lab10-SCHEMATIC1-2.sim.cir ****
.END

**** 12/25/21 21:36:02 ********* PSpice 9.2 (Mar 2000) ******** ID# 1 ********

 ** Profile: "SCHEMATIC1-2"  [ C:\THINGS\UNI\3RDTERM\ELEC\LAB\ELECTRICALANDELECTRONICCIRCUITSLAB\ELECLAB9\OrCad\lab10-SCHEMATIC1-2.si


 ****     Diode MODEL PARAMETERS


******************************************************************************




               X_U1.x_lm741.dx X_U1.x_lm741.dy X_U2.x_lm741.dx X_U2.x_lm741.dy 
          IS  800.000000E-18  800.000000E-18  800.000000E-18  800.000000E-18 
          RS    1               1.000000E-03    1               1.000000E-03 
         CJO                   10.000000E-12                   10.000000E-12 


**** 12/25/21 21:36:02 ********* PSpice 9.2 (Mar 2000) ******** ID# 1 ********

 ** Profile: "SCHEMATIC1-2"  [ C:\THINGS\UNI\3RDTERM\ELEC\LAB\ELECTRICALANDELECTRONICCIRCUITSLAB\ELECLAB9\OrCad\lab10-SCHEMATIC1-2.si


 ****     BJT MODEL PARAMETERS


******************************************************************************




               X_U1.x_lm741.qx X_U2.x_lm741.qx 
               NPN             NPN             
          IS  800.000000E-18  800.000000E-18 
          BF   93.75           93.75         
          NF    1               1            
          BR    1               1            
          NR    1               1            
          CN    2.42            2.42         
           D     .87             .87         


**** 12/25/21 21:36:02 ********* PSpice 9.2 (Mar 2000) ******** ID# 1 ********

 ** Profile: "SCHEMATIC1-2"  [ C:\THINGS\UNI\3RDTERM\ELEC\LAB\ELECTRICALANDELECTRONICCIRCUITSLAB\ELECLAB9\OrCad\lab10-SCHEMATIC1-2.si


 ****     INITIAL TRANSIENT SOLUTION       TEMPERATURE =   27.000 DEG C


******************************************************************************



 NODE   VOLTAGE     NODE   VOLTAGE     NODE   VOLTAGE     NODE   VOLTAGE


(N00148)   10.0000 (N00185)  -10.0000 (N00418) 19.25E-06 (N00631) 573.7E-06     

(N00766)    0.0000 (N03185) 19.25E-06 (N03225) 573.7E-06 (N03297)  -10.0000     

(N03381)   10.0000 (N03596)    0.0000 (X_U1.x_lm741.6)-55.74E-09                

(X_U1.x_lm741.7) 578.7E-06            (X_U1.x_lm741.8) 578.7E-06                

(X_U1.x_lm741.9)    0.0000            (X_U2.x_lm741.6)-55.75E-09                

(X_U2.x_lm741.7) 578.7E-06            (X_U2.x_lm741.8) 578.7E-06                

(X_U2.x_lm741.9)    0.0000            (X_U1.x_lm741.10)    -.6077               

(X_U1.x_lm741.11)    9.9603           (X_U1.x_lm741.12)    9.9603               

(X_U1.x_lm741.13)    -.5938           (X_U1.x_lm741.14)    -.5938               

(X_U1.x_lm741.53)    9.0000           (X_U1.x_lm741.54)   -9.0000               

(X_U1.x_lm741.90) 99.01E-06           (X_U1.x_lm741.91)   40.0000               

(X_U1.x_lm741.92)  -40.0000           (X_U1.x_lm741.99)    0.0000               

(X_U2.x_lm741.10)    -.6077           (X_U2.x_lm741.11)    9.9603               

(X_U2.x_lm741.12)    9.9603           (X_U2.x_lm741.13)    -.5938               

(X_U2.x_lm741.14)    -.5938           (X_U2.x_lm741.53)    9.0000               

(X_U2.x_lm741.54)   -9.0000           (X_U2.x_lm741.90) 99.02E-06               

(X_U2.x_lm741.91)   40.0000           (X_U2.x_lm741.92)  -40.0000               

(X_U2.x_lm741.99)    0.0000           




    VOLTAGE SOURCE CURRENTS
    NAME         CURRENT

    V_V3         1.925E-08
    V_V6        -7.973E-08
    V_V1        -1.116E-03
    V_V5        -1.116E-03
    V_V2        -1.116E-03
    V_V4        -1.116E-03
    X_U1.x_lm741.vb  -5.574E-13
    X_U1.x_lm741.vc   9.000E-12
    X_U1.x_lm741.ve   9.095E-12
    X_U1.x_lm741.vlim   9.901E-08
    X_U1.x_lm741.vlp  -4.000E-11
    X_U1.x_lm741.vln  -4.000E-11
    X_U2.x_lm741.vb  -5.575E-13
    X_U2.x_lm741.vc   9.000E-12
    X_U2.x_lm741.ve   9.095E-12
    X_U2.x_lm741.vlim   9.902E-08
    X_U2.x_lm741.vlp  -4.000E-11
    X_U2.x_lm741.vln  -4.000E-11

    TOTAL POWER DISSIPATION   4.47E-02  WATTS



          JOB CONCLUDED

          TOTAL JOB TIME             .78
