
**** 12/12/21 17:04:33 ********* PSpice 9.2 (Mar 2000) ******** ID# 1 ********

 ** Profile: "SCHEMATIC1-3-2"  [ C:\THINGS\UNI\3RDTERM\ELEC\LAB\ELECTRICALANDELECTRONICCIRCUITSLAB\ELECLAB9\OrCad\lab8-schematic1-3-2


 ****     CIRCUIT DESCRIPTION


******************************************************************************




** Creating circuit file "lab8-schematic1-3-2.sim.cir" 
** WARNING: THIS AUTOMATICALLY GENERATED FILE MAY BE OVERWRITTEN BY SUBSEQUENT SIMULATIONS

*Libraries: 
* Local Libraries :
* From [PSPICE NETLIST] section of C:\Program Files\Orcad\PSpice\PSpice.ini file:
.lib "nom.lib" 

*Analysis directives: 
.TRAN  0 0.02 0 
.PROBE V(*) I(*) W(*) D(*) NOISE(*) 
.INC ".\lab8-SCHEMATIC1.net" 



**** INCLUDING lab8-SCHEMATIC1.net ****
* source LAB8
C_C1         N07578 N07655  10u   
V_V22         N11363 0  
+PULSE 10 -10 0 1n 1n 0.01 0.02
M_M4         N03828 N02776 N02832 N02832 M2N7000
V_V20         N11275 0 10Vdc
V_V4         N01659 0 10Vdc
V_V5         N02013 0 0Vdc
M_M1         N07794 N07655 0 0 M2N7000
R_R12         N07794 N07758  10k  
R_R11         0 N05350  150  
R_R6         N01953 N02045  100  
R_R1         N07655 N07758  47k  
M_M5         N05516 N05556 N05350 N05350 M2N7000
M_M2         N01686 N01751 N01722 N01722 M2N7000
M_M14         N11317 N11363 N11349 N11349 M2N7000
R_R2         0 N07655  10.5k  
R_R7         0 N02776  123114  
V_V6         N01953 0 10Vdc
R_R3         0 N01722  100  
R_R8         N02776 N02715  100k  
R_R16         N11275 N11317  1k  
M_M3         N02045 N02013 N02089 N02089 M2N7000
R_R4         N01659 N01686  1k  
         X_D2 N05499 N05516 D1N5765 
R_R9         N03828 N02715  100  
R_R13         0 N07954  100meg  
R_R5         0 N02089  150  
R_R10         0 N02832  150  
V_V9         N05499 0 10Vdc
C_C2         N07794 N07954  10u   
V_V7         N02715 0 10Vdc
V_V8         N05556 0  
+PULSE +5 -5 0 1n 1n 5m 10m
V_V2         N07758 0 10Vdc
V_V1         N07578 0  
+SIN 0 10m 1k 0 0 0
R_R17         0 N11349  100  
V_V3         N01751 0 0Vdc

**** RESUMING lab8-schematic1-3-2.sim.cir ****
.END

**** 12/12/21 17:04:33 ********* PSpice 9.2 (Mar 2000) ******** ID# 1 ********

 ** Profile: "SCHEMATIC1-3-2"  [ C:\THINGS\UNI\3RDTERM\ELEC\LAB\ELECTRICALANDELECTRONICCIRCUITSLAB\ELECLAB9\OrCad\lab8-schematic1-3-2


 ****     Diode MODEL PARAMETERS


******************************************************************************




               X_D2.DLOW       X_D2.DHIGH      
          IS    1.000000E-15    9.000000E-15 
           N    2.15            1.2          
          BV    5              99.999000E+12 
         IBV  100.000000E-06    1.000000E-03 
          RS  100                .3          
          TT   10.000000E-09                 
         CJO   82.852370E-12                 
          VJ    1.207694                     
           M     .405311                     
          FC     .434001                     
          EG    1.664            .1          
         XTI   10.78           -3.84         


**** 12/12/21 17:04:33 ********* PSpice 9.2 (Mar 2000) ******** ID# 1 ********

 ** Profile: "SCHEMATIC1-3-2"  [ C:\THINGS\UNI\3RDTERM\ELEC\LAB\ELECTRICALANDELECTRONICCIRCUITSLAB\ELECLAB9\OrCad\lab8-schematic1-3-2


 ****     MOSFET MODEL PARAMETERS


******************************************************************************




               M2N7000         
               NMOS            
       LEVEL    3            
           L    2.000000E-06 
           W     .12         
         VTO    1.73         
          KP    1.073000E-06 
       GAMMA    0            
         PHI     .6          
      LAMBDA    0            
          RD     .5489       
          RS     .02         
          RG  546.2          
          RB    1.000000E-03 
         RDS   48.000000E+06 
          IS   10.000000E-15 
          JS    0            
          PB     .8          
        PBSW     .8          
         CBD   74.460000E-12 
          CJ    0            
        CJSW    0            
        CGSO   73.610000E-12 
        CGDO    6.487000E-12 
        CGBO    0            
         TOX    2.000000E-06 
          XJ    0            
       UCRIT   10.000000E+03 
       DELTA    0            
         ETA    0            
      DIOMOD    1            
         VFB    0            
        LETA    0            
        WETA    0            
          U0    0            
        TEMP    0            
         VDD    0            
       XPART    0            


**** 12/12/21 17:04:33 ********* PSpice 9.2 (Mar 2000) ******** ID# 1 ********

 ** Profile: "SCHEMATIC1-3-2"  [ C:\THINGS\UNI\3RDTERM\ELEC\LAB\ELECTRICALANDELECTRONICCIRCUITSLAB\ELECLAB9\OrCad\lab8-schematic1-3-2


 ****     INITIAL TRANSIENT SOLUTION       TEMPERATURE =   27.000 DEG C


******************************************************************************



 NODE   VOLTAGE     NODE   VOLTAGE     NODE   VOLTAGE     NODE   VOLTAGE


(N01659)   10.0000 (N01686)    9.9998 (N01722) 20.83E-06 (N01751)    0.0000     

(N01953)   10.0000 (N02013)    0.0000 (N02045)   10.0000 (N02089) 31.25E-06     

(N02715)   10.0000 (N02776)    5.5180 (N02832)    2.9994 (N03828)    8.0004     

(N05350)    2.5438 (N05499)   10.0000 (N05516)    8.4175 (N05556)    5.0000     

(N07578)    0.0000 (N07655)    1.8261 (N07758)   10.0000 (N07794)    7.0269     

(N07954)    0.0000 (N11275)   10.0000 (N11317)     .9312 (N11349)     .9069     

(N11363)   10.0000 (X_D2.4)    9.1191 




    VOLTAGE SOURCE CURRENTS
    NAME         CURRENT

    V_V22        0.000E+00
    V_V20       -9.069E-03
    V_V4        -2.083E-07
    V_V5         0.000E+00
    V_V6        -2.083E-07
    V_V9        -1.696E-02
    V_V7        -2.004E-02
    V_V8         0.000E+00
    V_V2        -4.712E-04
    V_V1         0.000E+00
    V_V3         0.000E+00

    TOTAL POWER DISSIPATION   4.65E-01  WATTS



          JOB CONCLUDED

          TOTAL JOB TIME             .11
